
Converged in 0.34 seconds
================================================================================
|     System Summary                                                           |
================================================================================

How many?                How much?              P (MW)            Q (MVAr)
---------------------    -------------------  -------------  -----------------
Buses             73     Total Gen Capacity   14549.8       -1615.0 to 4406.0
Generators       158     On-line Capacity      9076.0       -1615.0 to 4406.0
Committed Gens    96     Generation (actual)   8707.4            1330.6
Loads             51     Load                  8550.0            1740.0
  Fixed           51       Fixed               8550.0            1740.0
  Dispatchable     0       Dispatchable          -0.0 of -0.0      -0.0
Shunts             0     Shunt (inj)             -0.0               0.0
Branches         120     Losses (I^2 * Z)       157.45           1456.32
Transformers      15     Branch Charging (inj)     -             1865.7
Inter-ties         5     Total Inter-tie Flow   331.9              23.7
Areas              3

                          Minimum                      Maximum
                 -------------------------  --------------------------------
Voltage Magnitude   0.957 p.u. @ bus 307        1.108 p.u. @ bus 106 
Voltage Angle     -30.08 deg   @ bus 307       16.49 deg   @ bus 122 
P Losses (I^2*R)             -                  9.45 MW    @ line 312-323
Q Losses (I^2*X)             -                 76.37 MVAr  @ line 312-323

================================================================================
|     Bus Data                                                                 |
================================================================================
 Bus      Voltage          Generation             Load        
  #   Mag(pu) Ang(deg)   P (MW)   Q (MVAr)   P (MW)   Q (MVAr)
----- ------- --------  --------  --------  --------  --------
  101  1.047   -8.285    168.00     -8.16    108.00     22.00 
  102  1.047   -8.345    168.00    -38.28     97.00     20.00 
  103  1.014   -7.878       -         -      180.00     37.00 
  104  1.020  -10.569       -         -       74.00     15.00 
  105  1.050  -10.742       -         -       71.00     14.00 
  106  1.108  -13.473       -         -      136.00     28.00 
  107  1.050   -3.794    355.00     35.75    125.00     25.00 
  108  1.024   -9.197       -         -      171.00     35.00 
  109  1.032   -8.401       -         -      175.00     36.00 
  110  1.079  -10.184       -         -      195.00     40.00 
  111  1.033   -4.131       -         -         -         -   
  112  1.027   -2.462       -         -         -         -   
  113  1.035    0.000*   223.48     47.34    265.00     54.00 
  114  1.044   -2.571      0.00     88.63    194.00     39.00 
  115  1.043    5.960    165.00     89.97    317.00     64.00 
  116  1.046    5.802    155.00     79.83    100.00     20.00 
  117  1.048    9.113       -         -         -         -   
  118  1.050    9.926    355.00     68.44    333.00     68.00 
  119  1.040    5.342       -         -      181.00     37.00 
  120  1.044    6.817       -         -      128.00     26.00 
  121  1.050   10.537    400.00    -21.87       -         -   
  122  1.050   16.490    300.00    -40.76       -         -   
  123  1.050    8.346    670.00     17.29       -         -   
  124  1.014    0.860       -         -         -         -   
  201  1.050  -12.295    142.00      2.88    108.00     22.00 
  202  1.050  -12.336    168.00    -28.87     97.00     20.00 
  203  1.020   -8.994       -         -      180.00     37.00 
  204  1.018  -14.232       -         -       74.00     15.00 
  205  1.048  -14.719       -         -       71.00     14.00 
  206  1.103  -17.445       -         -      136.00     28.00 
  207  0.970  -21.850    110.00     25.27    125.00     25.00 
  208  0.972  -21.284       -         -      171.00     35.00 
  209  1.026  -11.773       -         -      175.00     36.00 
  210  1.072  -14.125       -         -      195.00     40.00 
  211  1.034   -6.039       -         -         -         -   
  212  1.025   -4.278       -         -         -         -   
  213  1.050   -0.472    465.00    125.02    265.00     54.00 
  214  1.050   -4.177      0.00    110.42    194.00     39.00 
  215  1.044    4.726    260.00     84.36    317.00     64.00 
  216  1.047    4.647    155.00     79.90    100.00     20.00 
  217  1.049    8.059       -         -         -         -   
  218  1.050    8.881    355.00     60.33    333.00     68.00 
  219  1.040    4.400       -         -      181.00     37.00 
  220  1.044    6.060       -         -      128.00     26.00 
  221  1.050    9.494    296.97     -7.66       -         -   
  222  1.050   15.443    300.00    -41.83       -         -   
  223  1.050    7.690    726.00     -7.15       -         -   
  224  1.017   -0.357       -         -         -         -   
  301  1.050  -23.079    104.00     29.32    108.00     22.00 
  302  1.050  -23.141    126.00     -9.22     97.00     20.00 
  303  1.001  -17.592       -         -      180.00     37.00 
  304  1.011  -23.489       -         -       74.00     15.00 
  305  1.043  -24.201       -         -       71.00     14.00 
  306  1.095  -26.245       -         -      136.00     28.00 
  307  0.957  -30.081    110.00     25.26    125.00     25.00 
  308  0.959  -29.499       -         -      171.00     35.00 
  309  1.013  -19.653       -         -      175.00     36.00 
  310  1.062  -22.252       -         -      195.00     40.00 
  311  1.024  -12.932       -         -         -         -   
  312  1.010  -11.165       -         -         -         -   
  313  1.035   -7.712    355.00    120.73    265.00     54.00 
  314  1.050   -9.723      0.00    151.68    194.00     39.00 
  315  1.042    1.461    190.00    125.85    317.00     64.00 
  316  1.045    1.108    155.00     79.22    100.00     20.00 
  317  1.047    5.067       -         -         -         -   
  318  1.050    6.166    355.00     63.24    333.00     68.00 
  319  1.039    0.784       -         -      181.00     37.00 
  320  1.044    2.380       -         -      128.00     26.00 
  321  1.050    6.856    355.00     -3.57       -         -   
  322  1.050   12.882    310.00    -39.96       -         -   
  323  1.050    3.974    710.00     67.24       -         -   
  324  1.001   -5.494       -         -         -         -   
  325  1.049    4.520       -         -         -         -   
                        --------  --------  --------  --------
               Total:   8707.45   1330.64   8550.00   1740.00

================================================================================
|     Branch Data                                                              |
================================================================================
Brnch   From   To    From Bus Injection   To Bus Injection     Loss (I^2 * Z)  
  #     Bus    Bus    P (MW)   Q (MVAr)   P (MW)   Q (MVAr)   P (MW)   Q (MVAr)
-----  -----  -----  --------  --------  --------  --------  --------  --------
   1    101    102      8.00    -26.22     -8.00    -24.28     0.002      0.01
   2    101    103      0.67     13.15     -0.53    -18.69     0.133      0.51
   3    101    105     51.33    -17.09    -50.75     16.80     0.579      2.24
   4    102    104     35.99     11.04    -35.55    -12.98     0.440      1.69
   5    102    106     43.00    -45.04    -41.35     45.37     1.657      6.36
   6    103    109      3.74    -18.14     -3.65     15.13     0.086      0.33
   7    103    124   -183.20     -0.17    183.88     28.43     0.673     28.27
   8    104    109    -38.45     -2.02     38.83      0.55     0.383      1.48
   9    105    110    -20.25    -30.80     20.51     29.10     0.267      1.02
  10    106    110    -94.65    -73.37     96.36   -213.28     1.708      7.44
  11    107    108    168.14      7.24   -164.03      6.61     4.112     15.68
  12    107    203     61.86      3.51    -60.39     -2.58     1.471      5.64
  13    108    109     -9.49     -4.65      9.53      0.04     0.039      0.15
  14    108    110      2.52    -36.96     -2.02     33.88     0.493      1.89
  15    109    111    -92.48    -31.39     92.67     39.38     0.190      7.98
  16    109    112   -127.23    -20.32    127.56     34.21     0.331     13.89
  17    110    111   -136.68     48.71    137.06    -33.06     0.373     15.65
  18    110    112   -173.17     61.60    173.76    -36.49     0.598     25.11
  19    111    113   -157.69     16.34    159.11    -15.63     1.425     11.40
  20    111    114    -72.04    -22.66     72.30     15.33     0.258      2.17
  21    112    113    -95.42     -7.83     95.94      1.35     0.518      4.15
  22    112    123   -205.90     10.11    210.77      7.38     4.873     39.39
  23    113    123   -179.04      7.92    182.36     -1.40     3.326     26.30
  24    113    215   -117.54     -0.31    118.84     -7.03     1.297      9.73
  25    114    116   -266.30     34.29    269.62     -4.06     3.321     39.19
  26    115    116     15.09    -23.95    -15.08     20.13     0.013      0.11
  27    115    121   -176.65      7.83    178.38     -4.97     1.732     14.14
  28    115    121   -176.65      7.83    178.38     -4.97     1.732     14.14
  29    115    124    186.21     34.25   -183.88    -28.43     2.336     17.35
  30    116    117   -240.63     22.80    242.24    -14.91     1.606     13.92
  31    116    119     41.09     20.96    -41.03    -25.81     0.062      0.47
  32    117    118   -110.92      2.53    111.14     -4.27     0.224      1.57
  33    117    122   -131.33     12.38    133.60    -19.66     2.274     17.05
  34    118    121    -44.57      2.35     44.62     -7.94     0.055      0.48
  35    118    121    -44.57      2.35     44.62     -7.94     0.055      0.48
  36    119    120    -69.99     -5.59     70.21     -1.60     0.227      1.81
  37    119    120    -69.99     -5.59     70.21     -1.60     0.227      1.81
  38    120    123   -134.21    -11.40    134.71     10.01     0.498      3.65
  39    120    123   -134.21    -11.40    134.71     10.01     0.498      3.65
  40    121    122   -164.13     22.64    166.40    -21.11     2.275     17.19
  41    123    217      7.45     -8.71     -7.44     -8.33     0.005      0.04
  42    201    202      5.38    -26.56     -5.38    -24.26     0.001      0.00
  43    201    203    -23.57     18.60     24.08    -22.74     0.513      1.97
  44    201    205     52.19    -11.15    -51.63     10.80     0.563      2.18
  45    202    204     32.57     16.29    -32.15    -18.32     0.416      1.60
  46    202    206     43.81    -40.90    -42.29     40.73     1.526      5.86
  47    203    209     39.09    -15.24    -38.58     13.85     0.510      1.96
  48    203    224   -182.78      3.56    183.44     24.22     0.661     27.78
  49    204    209    -41.85      3.32     42.31     -4.47     0.462      1.78
  50    205    210    -19.37    -24.80     19.57     22.84     0.194      0.74
  51    206    210    -93.71    -68.73     95.48   -214.49     1.763      7.68
  52    207    208    -15.00      0.27     15.04     -1.73     0.038      0.15
  53    208    209    -99.15      0.35    103.63     12.35     4.480     17.19
  54    208    210    -86.89    -33.62     90.78     43.83     3.889     14.92
  55    209    211   -123.36    -36.80    123.69     50.84     0.334     14.04
  56    209    212   -159.00    -20.93    159.52     42.72     0.519     21.79
  57    210    211   -181.87     44.72    182.50    -18.31     0.629     26.41
  58    210    212   -218.95     63.09    219.89    -24.00     0.931     39.10
  59    211    213   -218.96     -1.03    221.65     11.69     2.690     21.52
  60    211    214    -87.23    -31.50     87.62     25.21     0.389      3.27
  61    212    213   -152.48    -34.10    153.85     34.33     1.375     11.00
  62    212    223   -226.93     15.38    232.89     10.91     5.956     48.15
  63    213    223   -175.50     25.00    178.70    -19.79     3.195     25.27
  64    214    216   -281.62     46.21    285.33    -11.41     3.714     43.82
  65    215    216      6.11    -24.78     -6.10     20.93     0.010      0.09
  66    215    221   -183.85     11.22    185.72     -7.18     1.877     15.33
  67    215    221   -183.85     11.22    185.72     -7.18     1.877     15.33
  68    215    224    185.74     29.72   -183.44    -24.22     2.299     17.08
  69    216    217   -248.37     24.60    250.08    -15.84     1.708     14.80
  70    216    219     24.14     25.78    -24.10    -30.83     0.038      0.29
  71    217    218   -111.19     10.69    111.42    -12.41     0.227      1.59
  72    217    222   -131.44     13.48    133.72    -20.73     2.280     17.10
  73    218    221    -44.71      2.37     44.76     -7.95     0.055      0.48
  74    218    221    -44.71      2.37     44.76     -7.95     0.055      0.48
  75    219    220    -78.45     -3.08     78.74     -3.66     0.284      2.28
  76    219    220    -78.45     -3.08     78.74     -3.66     0.284      2.28
  77    220    223   -142.74     -9.34    143.30      8.42     0.562      4.12
  78    220    223   -142.74     -9.34    143.30      8.42     0.562      4.12
  79    221    222   -164.00     22.61    166.28    -21.10     2.271     17.16
  80    301    302      8.26    -27.18     -8.26    -23.64     0.002      0.01
  81    301    303    -38.08     33.46     39.47    -34.12     1.392      5.34
  82    301    305     25.82      1.03    -25.69     -3.03     0.134      0.52
  83    302    304     12.66     27.33    -12.36    -29.77     0.303      1.17
  84    302    306     24.60    -32.91    -23.91     29.55     0.684      2.62
  85    303    309     26.40    -17.86    -26.10     15.76     0.297      1.14
  86    303    324   -245.87     14.98    247.12     37.43     1.248     52.41
  87    304    309    -61.64     14.77     62.72    -13.50     1.074      4.14
  88    305    310    -45.31    -10.97     45.77     10.04     0.454      1.74
  89    306    310   -112.09    -57.55    114.50   -217.91     2.410     10.50
  90    307    308    -15.00      0.26     15.04     -1.67     0.040      0.15
  91    308    309    -99.78      1.17    104.44     12.34     4.662     17.89
  92    308    310    -86.26    -34.50     90.24     45.14     3.974     15.25
  93    309    311   -141.17    -36.29    141.61     54.75     0.440     18.46
  94    309    312   -174.88    -14.31    175.52     41.06     0.637     26.75
  95    310    311   -205.37     48.87    206.19    -14.66     0.815     34.22
  96    310    312   -240.13     73.85    241.28    -25.39     1.154     48.46
  97    311    313   -199.53      5.79    201.82      1.88     2.284     18.27
  98    311    314   -148.27    -45.88    149.40     45.90     1.129      9.48
  99    312    313   -135.10    -36.59    136.23     35.19     1.132      9.05
 100    312    323   -281.70     20.93    291.15     33.90     9.448     76.37
 101    313    323   -248.05     29.66    254.52      1.79     6.477     51.23
 102    314    316   -343.40     66.78    348.98     -9.96     5.578     65.83
 103    315    316     36.93    -22.73    -36.90     19.09     0.033      0.28
 104    315    321   -207.70     13.14    210.10     -4.80     2.402     19.62
 105    315    321   -207.70     13.14    210.10     -4.80     2.402     19.62
 106    315    324    251.46     58.29   -247.12    -37.43     4.341     32.25
 107    316    317   -286.81     29.79    289.10    -15.96     2.290     19.84
 108    316    319     29.73     20.29    -29.70    -25.32     0.039      0.30
 109    317    318   -150.09      2.34    150.51     -2.77     0.411      2.88
 110    317    322   -139.01     13.62    141.56    -18.80     2.550     19.13
 111    318    321    -50.39      3.09     50.46     -8.55     0.070      0.61
 112    318    321    -50.39      3.09     50.46     -8.55     0.070      0.61
 113    319    320    -75.65     -5.84     75.92     -1.04     0.265      2.12
 114    319    320    -75.65     -5.84     75.92     -1.04     0.265      2.12
 115    320    323   -139.92    -11.96    140.46     10.90     0.542      3.97
 116    320    323   -139.92    -11.96    140.46     10.90     0.542      3.97
 117    321    322   -166.11     23.12    168.44    -21.16     2.331     17.61
 118    325    121   -116.59      8.65    118.11    -18.69     1.525     12.32
 119    318    223    -27.73     -8.18     27.82    -15.12     0.092      0.74
 120    323    325   -116.59      9.77    116.59     -8.65    -0.000      1.12
                                                             --------  --------
                                                    Total:   157.447   1456.32
